!Agilent Technologies,N5230A,US43500308,A.06.04.32
!Agilent N5230A: A.06.04.32
!Date: Thursday, July 11, 2024 10:55:18
!Correction: S12(Full 2 Port(1,2)) 
!S1P File: Measurement: S12:
# Hz S  dB   R 50
500000000  -9.379403e+001  4.979985e+001 
550000000  -9.267613e+001  7.436877e+001 
600000000  -9.575180e+001  1.686619e+002 
650000000  -9.734703e+001  -7.952090e+001 
700000000  -9.785753e+001  -3.932994e+001 
750000000  -9.736337e+001  -8.806981e+001 
800000000  -9.176207e+001  1.751375e+002 
850000000  -9.093133e+001  1.055106e+002 
900000000  -9.476599e+001  2.151641e-002 
950000000  -1.021174e+002  1.637195e+002 
1000000000  -9.132611e+001  4.128506e+001 
1050000000  -9.832137e+001  1.323690e+002 
1100000000  -1.015815e+002  1.561157e+002 
1150000000  -9.915801e+001  7.249632e+001 
1200000000  -9.308312e+001  4.412241e+001 
1250000000  -1.045837e+002  1.739828e+002 
1300000000  -1.092641e+002  8.907187e+001 
1350000000  -9.687123e+001  2.355356e+001 
1400000000  -9.804020e+001  -8.248263e+001 
1450000000  -1.050600e+002  1.242561e+002 
1500000000  -1.020386e+002  -1.730090e+002 
1550000000  -8.958218e+001  5.338126e+000 
1600000000  -9.596655e+001  4.577286e+001 
1650000000  -9.010378e+001  -2.823147e+001 
1700000000  -9.918581e+001  1.558916e+002 
1750000000  -9.619971e+001  1.447729e+002 
1800000000  -9.452237e+001  -3.466526e+001 
1850000000  -9.362873e+001  -5.869762e+001 
1900000000  -9.484446e+001  1.211121e+002 
1950000000  -9.680989e+001  2.674134e+001 
2000000000  -9.629386e+001  -1.622772e+002 
2050000000  -8.587965e+001  -6.308894e+001 
2100000000  -9.539069e+001  -1.246862e+002 
2150000000  -9.521951e+001  1.514748e+002 
2200000000  -9.571193e+001  7.481396e+001 
2250000000  -9.530993e+001  -7.732337e+001 
2300000000  -9.484734e+001  1.726930e+002 
2350000000  -1.036559e+002  1.540775e+002 
2400000000  -9.148014e+001  -9.659902e+001 
2450000000  -9.145868e+001  3.367398e+001 
2500000000  -1.071255e+002  -1.325773e+002 
2550000000  -9.015364e+001  -1.678189e+002 
2600000000  -9.687173e+001  1.752024e+002 
2650000000  -9.466867e+001  -1.014837e+002 
2700000000  -9.207601e+001  1.088064e+002 
2750000000  -8.983649e+001  -9.852398e+001 
2800000000  -9.385392e+001  -4.152860e+001 
2850000000  -9.402632e+001  -1.036431e+002 
2900000000  -9.787401e+001  1.167855e+002 
2950000000  -9.574200e+001  -1.127696e+001 
3000000000  -9.337426e+001  3.810480e+001 
3050000000  -9.725156e+001  1.203133e+002 
3100000000  -9.144444e+001  2.713937e+001 
3150000000  -9.816970e+001  8.606192e+001 
3200000000  -9.440499e+001  9.539368e+001 
3250000000  -1.030073e+002  -7.722386e+001 
3300000000  -1.000079e+002  1.632065e+002 
3350000000  -9.562916e+001  -3.046833e+001 
3400000000  -9.437945e+001  -8.675914e+001 
3450000000  -1.010480e+002  -4.938891e+001 
3500000000  -9.198498e+001  -2.081532e+001 
3550000000  -9.195750e+001  1.592478e+002 
3600000000  -9.506628e+001  1.659764e+002 
3650000000  -9.514333e+001  -1.155347e+002 
3700000000  -1.090590e+002  -1.174571e+002 
3750000000  -9.967054e+001  1.038588e+001 
3800000000  -9.863831e+001  1.041122e+002 
3850000000  -1.024958e+002  9.615778e+001 
3900000000  -9.665156e+001  -1.373226e+002 
3950000000  -1.059553e+002  9.832081e+001 
4000000000  -9.454094e+001  1.366666e+002 
4050000000  -9.063867e+001  -1.181659e+002 
4100000000  -9.874096e+001  3.415028e+001 
4150000000  -9.381803e+001  -1.083066e+002 
4200000000  -8.979417e+001  1.097036e+002 
4250000000  -8.799962e+001  4.124294e+001 
4300000000  -1.039640e+002  9.391047e+000 
4350000000  -9.511997e+001  6.081266e+001 
4400000000  -8.974551e+001  9.506483e+001 
4450000000  -8.939720e+001  6.250765e+001 
4500000000  -1.112055e+002  -1.059452e+002 
4550000000  -1.050062e+002  1.798804e+002 
4600000000  -1.023498e+002  -1.790861e+002 
4650000000  -1.068760e+002  1.254358e+002 
4700000000  -1.039761e+002  -6.062394e+001 
4750000000  -9.582041e+001  1.184055e+002 
4800000000  -9.318988e+001  1.491476e+002 
4850000000  -9.794643e+001  -3.088350e+001 
4900000000  -9.465246e+001  1.093171e+002 
4950000000  -9.411641e+001  1.229699e+002 
5000000000  -9.332535e+001  -1.283650e+002 
5050000000  -9.039820e+001  9.989661e+001 
5100000000  -1.002304e+002  9.345782e+001 
5150000000  -9.257975e+001  1.149067e+002 
5200000000  -1.095922e+002  -1.774908e+002 
5250000000  -9.351860e+001  -1.102089e+002 
5300000000  -9.275866e+001  -4.786547e+001 
5350000000  -9.739233e+001  -3.666539e+001 
5400000000  -8.997937e+001  -1.652182e+002 
5450000000  -1.049077e+002  -5.549909e+001 
5500000000  -8.850466e+001  -1.273717e+002 
5550000000  -9.310236e+001  -1.251607e+002 
5600000000  -9.158073e+001  1.774080e+001 
5650000000  -9.052763e+001  7.415029e+001 
5700000000  -9.398518e+001  1.075605e+002 
5750000000  -9.789921e+001  -1.353275e+002 
5800000000  -1.022487e+002  -5.125208e+001 
5850000000  -9.077016e+001  -1.259359e+002 
5900000000  -9.204385e+001  -1.442318e+002 
5950000000  -9.374460e+001  -8.437305e+001 
6000000000  -1.012152e+002  -4.210265e+001 
