!Agilent Technologies,N5230A,US43500308,A.06.04.32
!Agilent N5230A: A.06.04.32
!Date: Thursday, July 11, 2024 10:54:47
!Correction: S12(Full 2 Port(1,2)) 
!S1P File: Measurement: S12:
# Hz S  dB   R 50
500000000  -9.855826e+001  -1.023819e+002 
550000000  -9.917205e+001  9.064926e+001 
600000000  -1.017870e+002  1.374307e+002 
650000000  -9.262041e+001  1.613018e+002 
700000000  -9.953731e+001  -2.967917e+001 
750000000  -9.765113e+001  -5.955068e+000 
800000000  -9.642426e+001  1.187366e+001 
850000000  -1.034460e+002  1.097609e+001 
900000000  -9.922819e+001  1.791712e+002 
950000000  -9.872974e+001  7.336574e+001 
1000000000  -1.037041e+002  7.879558e-001 
1050000000  -9.842617e+001  -1.615018e+002 
1100000000  -1.061697e+002  5.037891e+001 
1150000000  -1.059040e+002  -1.413490e+002 
1200000000  -9.707646e+001  -5.875161e+001 
1250000000  -9.388536e+001  9.084518e+001 
1300000000  -1.065471e+002  1.394664e+002 
1350000000  -1.008011e+002  8.260101e+001 
1400000000  -1.015798e+002  6.452501e+001 
1450000000  -1.041469e+002  -1.377283e+002 
1500000000  -9.792005e+001  1.771460e+002 
1550000000  -1.109753e+002  1.738560e+002 
1600000000  -1.011804e+002  7.069884e+001 
1650000000  -9.489455e+001  -5.184641e+001 
1700000000  -9.631998e+001  -1.292888e+002 
1750000000  -1.023107e+002  -6.227323e+001 
1800000000  -9.461572e+001  -3.384745e+001 
1850000000  -1.005421e+002  8.897875e+001 
1900000000  -9.554017e+001  -1.672026e+002 
1950000000  -1.011510e+002  1.791536e+002 
2000000000  -9.576421e+001  -6.298358e+001 
2050000000  -1.051982e+002  1.359227e+002 
2100000000  -8.733107e+001  3.584318e+001 
2150000000  -1.053280e+002  5.283639e+000 
2200000000  -1.019194e+002  1.142077e+002 
2250000000  -9.751517e+001  -7.586078e+001 
2300000000  -1.024694e+002  1.054988e+001 
2350000000  -8.609018e+001  -4.064387e+001 
2400000000  -1.020355e+002  8.276773e+001 
2450000000  -9.517339e+001  1.612684e+002 
2500000000  -9.606036e+001  -7.521109e+001 
2550000000  -9.109145e+001  6.756539e+001 
2600000000  -9.416449e+001  4.253999e+001 
2650000000  -9.076569e+001  -6.138585e+001 
2700000000  -1.023550e+002  -1.357612e+002 
2750000000  -9.603262e+001  2.007879e+001 
2800000000  -9.392544e+001  -3.712471e+001 
2850000000  -9.602149e+001  -2.858980e+001 
2900000000  -1.072445e+002  -1.168587e+002 
2950000000  -9.553927e+001  1.336016e+002 
3000000000  -1.036267e+002  -5.754665e+001 
3050000000  -9.748898e+001  -1.984033e+001 
3100000000  -1.033578e+002  -8.032049e+000 
3150000000  -1.032414e+002  1.499259e+002 
3200000000  -9.739518e+001  7.446922e+001 
3250000000  -1.073922e+002  1.312577e+002 
3300000000  -9.957288e+001  1.638495e+002 
3350000000  -1.019469e+002  2.788005e+001 
3400000000  -1.038076e+002  7.126517e+001 
3450000000  -9.537938e+001  -1.129112e+002 
3500000000  -9.872105e+001  -1.301519e+002 
3550000000  -9.492395e+001  -7.537903e+001 
3600000000  -9.281056e+001  1.523548e+002 
3650000000  -8.760938e+001  1.683257e+002 
3700000000  -9.593968e+001  -1.269491e+002 
3750000000  -9.979328e+001  1.442616e+002 
3800000000  -9.942386e+001  1.148860e+001 
3850000000  -9.254581e+001  2.080509e+001 
3900000000  -9.745590e+001  -2.933243e+001 
3950000000  -9.117913e+001  -6.665938e+001 
4000000000  -9.831336e+001  -1.225837e+002 
4050000000  -9.300671e+001  1.456830e+002 
4100000000  -1.012336e+002  -1.631109e+002 
4150000000  -9.349980e+001  1.411250e+002 
4200000000  -9.963795e+001  3.102607e+001 
4250000000  -9.667428e+001  4.087582e+001 
4300000000  -9.266828e+001  6.979960e+001 
4350000000  -1.018900e+002  3.733529e+001 
4400000000  -9.371953e+001  3.237444e+000 
4450000000  -8.664041e+001  -3.379269e+001 
4500000000  -9.096437e+001  1.263941e+002 
4550000000  -9.237428e+001  -1.399313e+002 
4600000000  -8.870489e+001  -8.434926e+000 
4650000000  -9.597954e+001  -1.870988e+001 
4700000000  -1.079200e+002  1.464845e+002 
4750000000  -9.942364e+001  1.023362e+002 
4800000000  -9.271928e+001  -6.839362e+001 
4850000000  -9.462678e+001  -5.200956e+001 
4900000000  -9.744848e+001  1.198074e+001 
4950000000  -1.026247e+002  1.727590e+002 
5000000000  -1.006894e+002  1.297669e+002 
5050000000  -9.273968e+001  -1.940489e+001 
5100000000  -9.056190e+001  1.272408e+001 
5150000000  -1.068261e+002  -1.751342e+002 
5200000000  -9.820213e+001  -2.873908e+001 
5250000000  -1.028077e+002  3.317031e+001 
5300000000  -9.502332e+001  -1.722399e+002 
5350000000  -9.670718e+001  -1.503106e+001 
5400000000  -1.013977e+002  1.275648e+002 
5450000000  -9.593095e+001  -7.602659e+001 
5500000000  -9.486609e+001  1.522895e+002 
5550000000  -9.173591e+001  5.133032e+001 
5600000000  -9.840592e+001  -1.586337e+002 
5650000000  -1.013826e+002  1.714117e+002 
5700000000  -8.998415e+001  1.094546e+002 
5750000000  -1.040299e+002  -3.167340e+001 
5800000000  -9.633154e+001  1.747659e+002 
5850000000  -9.560218e+001  1.161420e+002 
5900000000  -8.828777e+001  -6.752877e+001 
5950000000  -9.541142e+001  5.421498e+001 
6000000000  -8.663853e+001  8.950592e+001 
