!Agilent Technologies,N5230A,US43500308,A.06.04.32
!Agilent N5230A: A.06.04.32
!Date: Thursday, July 11, 2024 10:57:12
!Correction: S11(Full 2 Port(1,2)) S21(Full 2 Port(1,2)) S12(Full 2 Port(1,2)) S22(Full 2 Port(1,2)) 
!S2P File: Measurements: S11, S21, S12, S22:
# Hz S  dB   R 50
500000000 -2.142414e-001 -1.013739e+002 -3.391987e+001 -3.617284e+001 -3.414162e+001 -3.659417e+001 -2.362048e-001 1.698603e+002
550000000 -2.295148e-001 -1.089697e+002 -3.433187e+001 -4.106046e+001 -3.446102e+001 -4.177861e+001 -2.452117e-001 1.631982e+002
600000000 -2.388523e-001 -1.159997e+002 -3.465704e+001 -4.679170e+001 -3.487775e+001 -4.726734e+001 -2.574010e-001 1.563942e+002
650000000 -2.502356e-001 -1.228390e+002 -3.508993e+001 -5.137363e+001 -3.520594e+001 -5.168211e+001 -2.746995e-001 1.491729e+002
700000000 -2.579910e-001 -1.291629e+002 -3.559757e+001 -5.762542e+001 -3.584884e+001 -5.771914e+001 -3.025114e-001 1.411403e+002
750000000 -2.658599e-001 -1.353401e+002 -3.611248e+001 -6.254125e+001 -3.608987e+001 -6.307388e+001 -3.501710e-001 1.316655e+002
800000000 -2.738667e-001 -1.409963e+002 -3.686809e+001 -6.944342e+001 -3.704694e+001 -6.906347e+001 -4.436199e-001 1.195750e+002
850000000 -2.820321e-001 -1.465683e+002 -3.761285e+001 -7.766636e+001 -3.773295e+001 -7.958383e+001 -6.362178e-001 1.024816e+002
900000000 -2.890077e-001 -1.517155e+002 -3.940297e+001 -9.063933e+001 -3.950946e+001 -9.007357e+001 -1.078161e+000 7.519405e+001
950000000 -2.981785e-001 -1.568398e+002 -4.445285e+001 -1.077180e+002 -4.482862e+001 -1.062642e+002 -2.019348e+000 2.657402e+001
1000000000 -3.060642e-001 -1.615742e+002 -5.149251e+001 -2.184390e+001 -5.130279e+001 -1.966126e+001 -2.658007e+000 -4.853409e+001
1050000000 -3.170527e-001 -1.662938e+002 -4.255997e+001 -1.769804e+001 -4.246722e+001 -1.562191e+001 -1.872359e+000 -1.118056e+002
1100000000 -3.228422e-001 -1.707280e+002 -4.032501e+001 -3.122398e+001 -3.994896e+001 -3.263450e+001 -1.185555e+000 -1.472410e+002
1150000000 -3.334183e-001 -1.751089e+002 -3.943946e+001 -3.970969e+001 -3.938364e+001 -3.783077e+001 -8.355708e-001 -1.678531e+002
1200000000 -3.399360e-001 -1.792877e+002 -3.937328e+001 -4.749162e+001 -3.954328e+001 -4.887443e+001 -6.524338e-001 1.786437e+002
1250000000 -3.497954e-001 1.766087e+002 -3.917266e+001 -5.330814e+001 -3.915094e+001 -5.059523e+001 -5.449213e-001 1.687797e+002
1300000000 -3.553550e-001 1.726441e+002 -3.950908e+001 -5.783912e+001 -3.964462e+001 -5.486660e+001 -4.769997e-001 1.610356e+002
1350000000 -3.675173e-001 1.688068e+002 -3.953940e+001 -6.237390e+001 -3.956800e+001 -5.855658e+001 -4.318932e-001 1.546101e+002
1400000000 -3.766158e-001 1.650225e+002 -3.997379e+001 -6.453248e+001 -3.947696e+001 -6.150488e+001 -3.988657e-001 1.490610e+002
1450000000 -3.887962e-001 1.613759e+002 -4.001637e+001 -6.814233e+001 -3.998602e+001 -6.251706e+001 -3.756505e-001 1.440762e+002
1500000000 -3.962540e-001 1.576266e+002 -4.017606e+001 -6.840157e+001 -3.959586e+001 -6.856514e+001 -3.585036e-001 1.395097e+002
1550000000 -4.085287e-001 1.541174e+002 -4.015529e+001 -7.174924e+001 -3.988540e+001 -6.564672e+001 -3.431838e-001 1.352079e+002
1600000000 -4.166001e-001 1.503972e+002 -4.001471e+001 -7.214275e+001 -3.985136e+001 -7.408976e+001 -3.320607e-001 1.311759e+002
1650000000 -4.310938e-001 1.470316e+002 -3.995782e+001 -7.580743e+001 -3.945156e+001 -7.150462e+001 -3.235024e-001 1.273792e+002
1700000000 -4.475952e-001 1.432688e+002 -3.939880e+001 -7.832432e+001 -3.976908e+001 -7.836867e+001 -3.178584e-001 1.236448e+002
1750000000 -4.972796e-001 1.402325e+002 -4.037322e+001 -8.590481e+001 -4.022955e+001 -8.556924e+001 -3.163015e-001 1.199877e+002
1800000000 -4.592003e-001 1.365403e+002 -3.972300e+001 -8.032944e+001 -3.984230e+001 -7.613560e+001 -3.087343e-001 1.163689e+002
1850000000 -4.645893e-001 1.331598e+002 -3.940700e+001 -8.255608e+001 -3.990792e+001 -8.100832e+001 -3.062634e-001 1.127404e+002
1900000000 -4.758875e-001 1.293048e+002 -3.856137e+001 -8.623920e+001 -3.789096e+001 -8.218342e+001 -3.071341e-001 1.090831e+002
1950000000 -4.867149e-001 1.259081e+002 -3.840762e+001 -8.748019e+001 -3.883358e+001 -8.255804e+001 -3.115934e-001 1.053952e+002
2000000000 -5.031200e-001 1.219212e+002 -3.755973e+001 -9.073649e+001 -3.652846e+001 -9.142440e+001 -3.219110e-001 1.015627e+002
2050000000 -5.211408e-001 1.182579e+002 -3.689531e+001 -8.978672e+001 -3.638233e+001 -8.702420e+001 -3.431679e-001 9.747688e+001
2100000000 -5.521731e-001 1.137600e+002 -3.556550e+001 -9.361366e+001 -3.484937e+001 -9.872400e+001 -3.789268e-001 9.293118e+001
2150000000 -5.913445e-001 1.093345e+002 -3.386539e+001 -9.337560e+001 -3.320846e+001 -9.933888e+001 -4.468130e-001 8.775027e+001
2200000000 -6.795661e-001 1.034784e+002 -3.178461e+001 -1.005526e+002 -3.139318e+001 -1.059171e+002 -5.813848e-001 8.146903e+001
2250000000 -8.579277e-001 9.645187e+001 -2.878381e+001 -1.074392e+002 -2.929306e+001 -1.194152e+002 -8.995695e-001 7.271917e+001
2300000000 -1.422485e+000 8.487613e+001 -2.567801e+001 -1.274556e+002 -2.530139e+001 -1.319139e+002 -1.898557e+000 5.812828e+001
2350000000 -4.184936e+000 6.281162e+001 -2.331854e+001 -1.642131e+002 -2.460302e+001 -1.650231e+002 -6.904578e+000 2.949819e+001
2400000000 -1.250781e+001 1.535764e+002 -2.459788e+001 1.753474e+002 -2.413066e+001 1.755316e+002 -9.553106e+000 1.508721e+002
2450000000 -2.739290e+000 1.329003e+002 -2.453885e+001 1.460054e+002 -2.528625e+001 1.386702e+002 -2.562711e+000 1.215865e+002
2500000000 -1.422715e+000 1.182170e+002 -2.694875e+001 1.231090e+002 -2.580089e+001 1.187986e+002 -1.255644e+000 1.064613e+002
2550000000 -1.013446e+000 1.093981e+002 -2.860233e+001 1.114872e+002 -2.898270e+001 1.117578e+002 -8.454235e-001 9.756389e+001
2600000000 -8.566040e-001 1.032257e+002 -3.072754e+001 1.035201e+002 -3.004099e+001 9.966637e+001 -6.058472e-001 9.140036e+001
2650000000 -7.582201e-001 9.788566e+001 -3.159869e+001 9.742030e+001 -3.091040e+001 9.473380e+001 -4.894691e-001 8.627278e+001
2700000000 -7.136306e-001 9.342119e+001 -3.289236e+001 9.647931e+001 -3.216819e+001 9.659685e+001 -4.205981e-001 8.191803e+001
2750000000 -6.676508e-001 8.888274e+001 -3.305508e+001 9.210995e+001 -3.262645e+001 8.334575e+001 -3.802158e-001 7.792272e+001
2800000000 -6.492401e-001 8.498713e+001 -3.336216e+001 9.408054e+001 -3.227312e+001 9.210402e+001 -3.508909e-001 7.421922e+001
2850000000 -6.209623e-001 8.059652e+001 -3.311972e+001 8.848362e+001 -3.391055e+001 7.978948e+001 -3.270843e-001 7.081278e+001
2900000000 -6.110335e-001 7.683727e+001 -3.274358e+001 8.925058e+001 -3.212947e+001 8.139114e+001 -3.120833e-001 6.753613e+001
2950000000 -5.934764e-001 7.231263e+001 -3.244264e+001 8.235883e+001 -3.378457e+001 8.040394e+001 -3.009251e-001 6.422287e+001
3000000000 -5.878839e-001 6.847189e+001 -3.166478e+001 8.029303e+001 -3.286856e+001 7.204993e+001 -2.949362e-001 6.103764e+001
3050000000 -5.831546e-001 6.365005e+001 -3.161739e+001 7.241129e+001 -3.238997e+001 7.596598e+001 -2.907819e-001 5.784257e+001
3100000000 -5.802006e-001 5.950492e+001 -3.075456e+001 6.860136e+001 -3.338409e+001 7.162037e+001 -2.925759e-001 5.465863e+001
3150000000 -5.854572e-001 5.418916e+001 -3.104775e+001 6.136989e+001 -3.137804e+001 6.326352e+001 -2.949281e-001 5.137962e+001
3200000000 -5.914412e-001 4.955802e+001 -3.045431e+001 5.807634e+001 -3.244926e+001 7.291255e+001 -3.049092e-001 4.801931e+001
3250000000 -6.079354e-001 4.343740e+001 -3.097625e+001 5.465472e+001 -3.154573e+001 5.334024e+001 -3.251358e-001 4.442855e+001
3300000000 -6.328952e-001 3.779303e+001 -3.007572e+001 5.081810e+001 -3.048667e+001 6.615120e+001 -3.745300e-001 4.044169e+001
3350000000 -6.921052e-001 3.036142e+001 -3.029593e+001 5.002451e+001 -3.121508e+001 5.017692e+001 -5.007422e-001 3.566111e+001
3400000000 -7.713676e-001 2.308848e+001 -2.940917e+001 4.332662e+001 -2.940059e+001 5.040428e+001 -9.276288e-001 2.912889e+001
3450000000 -9.077066e-001 1.354937e+001 -2.981962e+001 4.217529e+001 -3.029952e+001 4.325018e+001 -3.081624e+000 2.406050e+001
3500000000 -1.094697e+000 3.552039e+000 -2.885266e+001 4.599846e+001 -2.977402e+001 4.897967e+001 -2.626725e+000 4.571839e+001
3550000000 -1.399154e+000 -9.643027e+000 -2.721166e+001 4.290586e+001 -2.747181e+001 3.741206e+001 -1.002078e+000 3.994313e+001
3600000000 -1.819799e+000 -2.430453e+001 -2.600634e+001 3.003118e+001 -2.706526e+001 3.805032e+001 -6.278452e-001 3.411398e+001
3650000000 -2.426626e+000 -4.374003e+001 -2.508182e+001 2.154506e+001 -2.670979e+001 1.503320e+001 -5.014958e-001 2.951914e+001
3700000000 -3.181769e+000 -6.599811e+001 -2.480863e+001 4.880796e+000 -2.487604e+001 1.308801e+001 -4.492637e-001 2.548915e+001
3750000000 -3.953192e+000 -9.413108e+001 -2.449891e+001 -6.116828e+000 -2.643007e+001 -1.516120e+000 -4.238521e-001 2.164311e+001
3800000000 -4.514238e+000 -1.241081e+002 -2.545690e+001 -2.262766e+001 -2.560875e+001 -1.857257e+001 -4.064030e-001 1.784635e+001
3850000000 -4.504454e+000 -1.550712e+002 -2.570665e+001 -3.334576e+001 -2.626034e+001 -2.507443e+001 -4.117897e-001 1.406261e+001
3900000000 -4.187593e+000 1.781194e+002 -2.754532e+001 -4.470999e+001 -2.723096e+001 -3.698275e+001 -4.222657e-001 1.019164e+001
3950000000 -3.601410e+000 1.560367e+002 -2.784258e+001 -5.475366e+001 -2.815226e+001 -4.881657e+001 -4.516796e-001 6.144724e+000
4000000000 -3.166701e+000 1.381062e+002 -2.940078e+001 -6.262916e+001 -2.810442e+001 -6.019500e+001 -5.040912e-001 1.888056e+000
4050000000 -2.774697e+000 1.243682e+002 -3.067776e+001 -8.654041e+001 -3.080205e+001 -7.699667e+001 -5.841507e-001 -2.262987e+000
4100000000 -2.380948e+000 1.136735e+002 -3.632503e+001 -7.421179e+001 -3.550015e+001 -7.845744e+001 -5.850347e-001 -6.849563e+000
4150000000 -1.929781e+000 1.040206e+002 -3.563503e+001 -6.827676e+001 -3.521969e+001 -5.798848e+001 -6.657287e-001 -1.246210e+001
4200000000 -1.696181e+000 9.523080e+001 -3.581425e+001 -6.572292e+001 -3.605980e+001 -6.773959e+001 -8.274293e-001 -1.861001e+001
4250000000 -1.435232e+000 8.803531e+001 -3.667824e+001 -7.503474e+001 -3.595860e+001 -6.610402e+001 -1.098286e+000 -2.582712e+001
4300000000 -1.305989e+000 8.127869e+001 -3.752363e+001 -7.404871e+001 -3.754466e+001 -6.935745e+001 -1.583507e+000 -3.467587e+001
4350000000 -1.118834e+000 7.547332e+001 -3.967247e+001 -7.819618e+001 -3.887160e+001 -7.075013e+001 -2.592096e+000 -4.585220e+001
4400000000 -1.038400e+000 6.998720e+001 -4.057150e+001 -6.638538e+001 -3.974101e+001 -6.203217e+001 -5.081003e+000 -5.753962e+001
4450000000 -8.963842e-001 6.490083e+001 -3.870843e+001 -6.030259e+001 -3.822649e+001 -5.332196e+001 -8.629709e+000 -4.547733e+001
4500000000 -8.457804e-001 6.025577e+001 -3.772617e+001 -7.850055e+001 -3.674260e+001 -7.788821e+001 -8.026676e+000 -4.471319e+001
4550000000 -7.353861e-001 5.552298e+001 -3.931274e+001 -9.569727e+001 -3.854245e+001 -8.969077e+001 -1.196413e+001 -5.473677e+001
4600000000 -7.001956e-001 5.148667e+001 -4.195532e+001 -1.157730e+002 -4.158443e+001 -1.179372e+002 -1.812412e+001 2.295779e+000
4650000000 -6.140331e-001 4.687302e+001 -4.664323e+001 -1.349624e+002 -4.603843e+001 -1.277878e+002 -9.816662e+000 3.169193e+001
4700000000 -5.914677e-001 4.331079e+001 -5.433168e+001 -1.754384e+002 -5.443507e+001 -1.765951e+002 -5.813004e+000 2.217243e+001
4750000000 -5.245905e-001 3.871378e+001 -5.475964e+001 8.605991e+001 -5.382301e+001 9.001247e+001 -3.862881e+000 9.481147e+000
4800000000 -5.096110e-001 3.548133e+001 -4.783245e+001 5.457036e+001 -4.736115e+001 5.705920e+001 -2.920690e+000 -3.676210e+000
4850000000 -4.632432e-001 3.081340e+001 -4.467623e+001 4.006036e+001 -4.393433e+001 4.085123e+001 -2.753302e+000 -1.645047e+001
4900000000 -4.526478e-001 2.781886e+001 -4.259431e+001 2.453826e+001 -4.157747e+001 2.620940e+001 -3.258102e+000 -2.767829e+001
4950000000 -4.252662e-001 2.306723e+001 -4.154911e+001 2.313516e+001 -4.098566e+001 2.219669e+001 -4.272209e+000 -3.660713e+001
5000000000 -4.211623e-001 2.016072e+001 -4.042741e+001 1.341785e+001 -3.926817e+001 1.092904e+001 -5.877355e+000 -4.308647e+001
5050000000 -4.142830e-001 1.530157e+001 -3.905309e+001 1.098367e+001 -3.874679e+001 9.426351e+000 -8.475990e+000 -4.169299e+001
5100000000 -4.152564e-001 1.239265e+001 -3.831560e+001 -2.453479e+000 -3.775823e+001 -5.413768e+000 -9.538618e+000 -1.857024e+001
5150000000 -4.324166e-001 7.339718e+000 -3.847995e+001 -1.090954e+001 -3.830239e+001 -1.244499e+001 -6.557045e+000 -1.009359e+001
5200000000 -4.446923e-001 4.246308e+000 -3.974544e+001 -2.016895e+001 -3.899415e+001 -2.132605e+001 -4.844479e+000 -1.904961e+001
5250000000 -4.872324e-001 -1.097355e+000 -3.894082e+001 -1.517210e+001 -3.893485e+001 -1.691209e+001 -4.377451e+000 -3.001161e+001
5300000000 -5.136663e-001 -4.581718e+000 -3.879039e+001 -2.245341e+001 -3.792022e+001 -2.690421e+001 -4.761568e+000 -4.128395e+001
5350000000 -5.920292e-001 -1.036794e+001 -3.733667e+001 -3.652111e+001 -3.740578e+001 -3.654615e+001 -6.217198e+000 -5.213433e+001
5400000000 -6.464765e-001 -1.461456e+001 -3.789425e+001 -5.840796e+001 -3.750762e+001 -6.493999e+001 -9.798227e+000 -5.654794e+001
5450000000 -7.883181e-001 -2.121867e+001 -3.960838e+001 -9.608266e+001 -4.003263e+001 -9.780116e+001 -1.320791e+001 -1.732722e+001
5500000000 -9.212571e-001 -2.681150e+001 -4.565831e+001 -1.515218e+002 -4.549866e+001 -1.545880e+002 -7.439350e+000 3.734097e+000
5550000000 -1.199553e+000 -3.500978e+001 -4.711784e+001 1.217101e+002 -4.813139e+001 1.229490e+002 -4.226527e+000 -7.921543e+000
5600000000 -1.508228e+000 -4.294827e+001 -4.523339e+001 7.243143e+001 -4.510275e+001 6.862002e+001 -2.950827e+000 -2.108442e+001
5650000000 -2.112387e+000 -5.448685e+001 -4.350330e+001 4.642464e+001 -4.386260e+001 5.564127e+001 -2.497485e+000 -3.257353e+001
5700000000 -2.931644e+000 -6.734727e+001 -4.363676e+001 4.437105e+001 -4.377399e+001 3.709891e+001 -2.452606e+000 -4.258855e+001
5750000000 -4.505628e+000 -8.704750e+001 -4.490544e+001 3.399984e+001 -4.438604e+001 4.080127e+001 -2.663545e+000 -5.196297e+001
5800000000 -6.969378e+000 -1.134410e+002 -4.489402e+001 6.023390e+001 -4.527061e+001 5.941349e+001 -3.141486e+000 -6.122498e+001
5850000000 -1.040678e+001 -1.644482e+002 -4.276950e+001 7.500472e+001 -4.189748e+001 7.666356e+001 -4.070189e+000 -7.027094e+001
5900000000 -1.030228e+001 1.268486e+002 -3.845224e+001 7.951139e+001 -3.833657e+001 7.937041e+001 -5.788880e+000 -7.773373e+001
5950000000 -6.640104e+000 8.199976e+001 -3.620108e+001 7.581030e+001 -3.533918e+001 7.459796e+001 -8.658673e+000 -7.570657e+001
6000000000 -4.461823e+000 5.519153e+001 -3.303296e+001 6.727875e+001 -3.323320e+001 6.709702e+001 -9.473930e+000 -5.181964e+001
