!Agilent Technologies,N5230A,US43500308,A.06.04.32
!Agilent N5230A: A.06.04.32
!Date: Thursday, July 11, 2024 10:43:42
!Correction: S12(Full 2 Port(1,2)) 
!S1P File: Measurement: S12:
# Hz S  dB   R 50
500000000  -8.873001e+001  -1.729145e+002 
550000000  -9.284544e+001  -1.748297e+002 
600000000  -9.509070e+001  -9.890588e+001 
650000000  -9.555698e+001  7.333383e+001 
700000000  -9.548402e+001  -5.824258e+000 
750000000  -8.979909e+001  1.157050e+002 
800000000  -9.908217e+001  1.381697e+002 
850000000  -9.426396e+001  -1.700267e+002 
900000000  -9.063713e+001  -6.344824e+001 
950000000  -1.006255e+002  -5.575738e+001 
1000000000  -9.051875e+001  2.249852e+001 
1050000000  -9.984939e+001  1.377245e+002 
1100000000  -9.463338e+001  1.390831e+002 
1150000000  -9.716671e+001  2.943539e+001 
1200000000  -9.510983e+001  1.032412e+002 
1250000000  -9.390078e+001  5.718438e+001 
1300000000  -9.120908e+001  1.089166e+002 
1350000000  -1.042122e+002  1.312755e+002 
1400000000  -9.426690e+001  -1.738975e+002 
1450000000  -9.590710e+001  -9.021716e+001 
1500000000  -9.989209e+001  1.672024e+002 
1550000000  -1.013983e+002  -1.571899e+002 
1600000000  -9.428270e+001  1.407757e+002 
1650000000  -1.009132e+002  -1.009482e+002 
1700000000  -9.435498e+001  -3.248165e+001 
1750000000  -9.777435e+001  -2.078684e+001 
1800000000  -9.603982e+001  8.086226e+001 
1850000000  -9.189439e+001  1.670649e+002 
1900000000  -9.126437e+001  3.852592e+001 
1950000000  -9.634537e+001  3.314649e+001 
2000000000  -9.937178e+001  -1.687907e+002 
2050000000  -8.776313e+001  -1.708700e+002 
2100000000  -9.403140e+001  -1.756210e+002 
2150000000  -9.269061e+001  -4.096151e+000 
2200000000  -8.991605e+001  6.547791e+000 
2250000000  -8.882526e+001  3.227910e+001 
2300000000  -1.055296e+002  -5.551587e+001 
2350000000  -1.018484e+002  1.244373e+001 
2400000000  -9.623728e+001  -8.928166e+001 
2450000000  -9.894656e+001  1.780075e+002 
2500000000  -9.891719e+001  3.260292e+001 
2550000000  -8.960638e+001  -3.528384e+001 
2600000000  -8.680952e+001  9.010554e+001 
2650000000  -9.365012e+001  -1.247372e+001 
2700000000  -9.100940e+001  -1.747122e+002 
2750000000  -8.939404e+001  -3.325275e+001 
2800000000  -9.734777e+001  2.934383e+001 
2850000000  -9.206459e+001  1.780100e+002 
2900000000  -9.424756e+001  1.450463e+002 
2950000000  -1.013443e+002  1.613806e+001 
3000000000  -9.302483e+001  1.211799e+002 
3050000000  -1.025249e+002  2.568108e+001 
3100000000  -9.693771e+001  -1.077469e+001 
3150000000  -8.763168e+001  -1.656190e+002 
3200000000  -9.210445e+001  4.074285e+001 
3250000000  -8.998483e+001  -9.502762e+001 
3300000000  -8.641976e+001  -1.997358e+001 
3350000000  -1.077449e+002  -1.550084e+001 
3400000000  -9.455784e+001  1.503361e+002 
3450000000  -9.705728e+001  4.148019e+001 
3500000000  -9.983693e+001  2.468768e+001 
3550000000  -9.536215e+001  7.988770e+001 
3600000000  -9.599594e+001  9.937698e+001 
3650000000  -9.700904e+001  -9.283205e+001 
3700000000  -9.720863e+001  1.460296e+002 
3750000000  -9.025551e+001  1.830584e+001 
3800000000  -9.113512e+001  1.466470e+002 
3850000000  -9.177484e+001  3.775302e+001 
3900000000  -9.194518e+001  -1.335627e+002 
3950000000  -9.199898e+001  -3.325248e+000 
4000000000  -8.569167e+001  -5.136823e+001 
4050000000  -9.429910e+001  -1.183521e+002 
4100000000  -8.638240e+001  1.557495e+002 
4150000000  -9.884335e+001  7.418397e+001 
4200000000  -8.966064e+001  -8.906430e+001 
4250000000  -1.074820e+002  6.097858e+001 
4300000000  -9.984754e+001  5.709107e+001 
4350000000  -9.648849e+001  1.504019e+002 
4400000000  -8.723138e+001  -9.521360e+001 
4450000000  -9.410053e+001  -5.807370e+001 
4500000000  -8.833307e+001  -3.149210e+001 
4550000000  -1.051598e+002  -6.572020e+001 
4600000000  -1.048966e+002  -1.394802e+002 
4650000000  -9.354518e+001  -1.368465e+001 
4700000000  -8.960059e+001  -1.365395e+002 
4750000000  -8.637630e+001  1.178918e+002 
4800000000  -9.241949e+001  -8.721789e-001 
4850000000  -9.025882e+001  -3.919881e+001 
4900000000  -9.598499e+001  1.485443e+002 
4950000000  -8.989717e+001  -9.618364e+001 
5000000000  -9.207981e+001  -1.629602e+002 
5050000000  -9.995092e+001  -1.151902e+002 
5100000000  -9.313265e+001  1.403460e+002 
5150000000  -9.123181e+001  -8.907903e+001 
5200000000  -9.319254e+001  2.160123e+001 
5250000000  -9.015538e+001  9.420373e+001 
5300000000  -8.708617e+001  -9.251962e+001 
5350000000  -9.543108e+001  1.672575e+002 
5400000000  -1.026921e+002  9.569404e+001 
5450000000  -9.029328e+001  9.405515e+001 
5500000000  -9.453483e+001  -8.431078e+001 
5550000000  -8.601883e+001  -1.716231e+002 
5600000000  -9.145948e+001  2.857117e+001 
5650000000  -8.912364e+001  -3.147423e+001 
5700000000  -8.889906e+001  -1.518768e+002 
5750000000  -9.284142e+001  1.537652e+002 
5800000000  -8.860448e+001  -1.740180e+001 
5850000000  -9.348141e+001  -1.686517e+002 
5900000000  -1.249875e+002  -1.791505e+002 
5950000000  -8.578393e+001  -3.058394e+000 
6000000000  -9.006821e+001  -1.572672e+002 
