!Agilent Technologies,N5230A,US43500308,A.06.04.32
!Agilent N5230A: A.06.04.32
!Date: Thursday, July 11, 2024 10:46:47
!Correction: S12(Full 2 Port(1,2)) 
!S1P File: Measurement: S12:
# Hz S  dB   R 50
500000000  -9.047981e+001  -1.591121e+002 
550000000  -9.341978e+001  -1.504832e+002 
600000000  -1.010599e+002  -1.091314e+002 
650000000  -1.031359e+002  -1.205651e+002 
700000000  -9.583236e+001  -6.798438e+001 
750000000  -9.208807e+001  8.619930e+001 
800000000  -8.990893e+001  -4.029843e+001 
850000000  -1.016475e+002  1.534187e+002 
900000000  -9.056453e+001  2.321420e+001 
950000000  -1.090855e+002  -8.803819e+001 
1000000000  -9.447327e+001  7.711616e+001 
1050000000  -9.658501e+001  1.228942e+002 
1100000000  -9.562892e+001  -1.778729e+002 
1150000000  -1.065047e+002  -1.162691e+002 
1200000000  -9.621007e+001  -1.246824e+002 
1250000000  -1.089066e+002  7.590198e+001 
1300000000  -9.202690e+001  -6.194223e+001 
1350000000  -9.816532e+001  -9.247219e+001 
1400000000  -9.583968e+001  -2.029883e+001 
1450000000  -9.701550e+001  -2.173149e+001 
1500000000  -9.625835e+001  5.506121e+001 
1550000000  -9.980702e+001  1.569869e+002 
1600000000  -9.349346e+001  -1.209807e+001 
1650000000  -9.157818e+001  -3.910375e+000 
1700000000  -9.283669e+001  8.608636e+001 
1750000000  -9.285293e+001  1.573333e+002 
1800000000  -9.312530e+001  1.560811e+002 
1850000000  -1.098235e+002  9.783411e+001 
1900000000  -1.000111e+002  1.227205e+002 
1950000000  -9.343658e+001  -9.955281e+001 
2000000000  -9.487756e+001  -1.431470e+002 
2050000000  -8.650902e+001  6.980514e+001 
2100000000  -9.160851e+001  -1.069634e+002 
2150000000  -9.503234e+001  -5.486272e+001 
2200000000  -9.808751e+001  1.573150e+002 
2250000000  -9.777637e+001  -9.762444e+001 
2300000000  -8.963673e+001  -1.352421e+002 
2350000000  -8.566636e+001  1.510524e+002 
2400000000  -8.597780e+001  1.116178e+001 
2450000000  -8.992670e+001  -7.553363e+001 
2500000000  -9.029010e+001  -9.328623e+001 
2550000000  -9.016601e+001  -1.254337e+002 
2600000000  -9.044450e+001  1.363102e+002 
2650000000  -9.517123e+001  9.837167e+000 
2700000000  -9.003949e+001  -1.737965e+001 
2750000000  -9.546034e+001  -9.553902e+001 
2800000000  -9.046004e+001  1.571220e+002 
2850000000  -8.937057e+001  1.199564e+002 
2900000000  -9.149062e+001  5.787692e+001 
2950000000  -9.008842e+001  -4.724377e+001 
3000000000  -9.075455e+001  -1.600405e+002 
3050000000  -9.371781e+001  1.163197e+002 
3100000000  -8.904651e+001  -8.972434e+000 
3150000000  -8.923546e+001  -1.005074e+002 
3200000000  -8.733143e+001  -1.703100e+002 
3250000000  -8.654080e+001  8.122451e+001 
3300000000  -8.767524e+001  2.327280e+001 
3350000000  -1.022935e+002  -5.361143e+001 
3400000000  -9.185488e+001  1.797511e+002 
3450000000  -9.351223e+001  4.729361e-002 
3500000000  -9.386368e+001  1.586475e+002 
3550000000  -1.002337e+002  9.436394e+000 
3600000000  -8.959190e+001  1.437288e+002 
3650000000  -9.761171e+001  1.142796e+002 
3700000000  -1.013621e+002  1.589263e+002 
3750000000  -9.436141e+001  6.450500e+001 
3800000000  -9.608657e+001  5.600957e+001 
3850000000  -9.048759e+001  -6.690258e+001 
3900000000  -1.002215e+002  -1.500778e+002 
3950000000  -9.186658e+001  2.532249e+001 
4000000000  -9.717356e+001  2.825324e+001 
4050000000  -9.567639e+001  -1.471842e+001 
4100000000  -9.252886e+001  1.098197e+002 
4150000000  -9.227966e+001  -4.231711e+001 
4200000000  -9.558490e+001  1.677037e+002 
4250000000  -9.910229e+001  -2.549338e+001 
4300000000  -1.044640e+002  -1.591045e+002 
4350000000  -9.416116e+001  1.234698e+002 
4400000000  -9.144072e+001  -1.296760e+002 
4450000000  -9.754983e+001  1.540287e+002 
4500000000  -8.668056e+001  -9.221272e+001 
4550000000  -9.638264e+001  2.330172e+001 
4600000000  -1.074366e+002  1.726615e+002 
4650000000  -1.022509e+002  1.538467e+002 
4700000000  -9.972778e+001  3.821573e+001 
4750000000  -9.873595e+001  6.406222e+001 
4800000000  -1.090041e+002  -5.358860e+001 
4850000000  -9.327551e+001  -1.128280e+002 
4900000000  -9.290984e+001  -1.737668e+002 
4950000000  -9.172800e+001  2.894976e+001 
5000000000  -9.124437e+001  9.093482e+001 
5050000000  -9.910699e+001  -2.552819e+001 
5100000000  -9.309387e+001  -1.689720e+002 
5150000000  -8.862192e+001  1.675004e+002 
5200000000  -8.904504e+001  1.430638e+002 
5250000000  -8.652789e+001  3.566786e+001 
5300000000  -9.075098e+001  5.658312e+001 
5350000000  -9.234280e+001  -1.165992e+002 
5400000000  -8.232319e+001  -1.578813e+002 
5450000000  -8.550040e+001  5.272650e+001 
5500000000  -8.985795e+001  -9.957423e+001 
5550000000  -8.702045e+001  -1.123211e+002 
5600000000  -9.402062e+001  -7.835411e+001 
5650000000  -8.607874e+001  1.534890e+002 
5700000000  -9.309839e+001  3.262436e+001 
5750000000  -9.142339e+001  -6.093377e+001 
5800000000  -9.467391e+001  -1.330473e+002 
5850000000  -9.091866e+001  8.419967e+001 
5900000000  -1.007125e+002  -1.226049e+002 
5950000000  -9.592566e+001  -2.471057e+001 
6000000000  -1.020291e+002  1.185802e+002 
