!Agilent Technologies,N5230A,US43500308,A.06.04.32
!Agilent N5230A: A.06.04.32
!Date: Thursday, July 11, 2024 10:53:00
!Correction: S11(Full 2 Port(1,2)) S21(Full 2 Port(1,2)) S12(Full 2 Port(1,2)) S22(Full 2 Port(1,2)) 
!S2P File: Measurements: S11, S21, S12, S22:
# Hz S  dB   R 50
500000000 -1.828948e-001 -1.007446e+002 -9.340348e+001 -1.200368e+002 -9.162571e+001 2.087403e+001 1.456457e-003 -1.127422e+000
550000000 -1.905145e-001 -1.083437e+002 -9.616679e+001 1.011720e+002 -9.897570e+001 1.478231e+002 1.871474e-003 -1.220036e+000
600000000 -1.900598e-001 -1.151613e+002 -1.028255e+002 -1.497679e+002 -9.294170e+001 1.755299e+002 1.807114e-003 -1.321301e+000
650000000 -1.938686e-001 -1.219271e+002 -9.962051e+001 -8.764710e+001 -1.063858e+002 1.189618e+002 3.349329e-003 -1.440567e+000
700000000 -1.928403e-001 -1.279608e+002 -1.019647e+002 -1.478860e+002 -9.054875e+001 -7.712540e+001 3.976100e-003 -1.546994e+000
750000000 -1.930576e-001 -1.340683e+002 -9.421146e+001 5.293843e+001 -9.537772e+001 1.316535e+002 4.144589e-003 -1.666713e+000
800000000 -1.912564e-001 -1.395152e+002 -1.008666e+002 1.372705e+002 -9.582925e+001 1.602555e+002 4.972151e-003 -1.791004e+000
850000000 -1.920972e-001 -1.450622e+002 -1.049428e+002 1.899400e+001 -9.589331e+001 -9.477454e+001 5.253214e-003 -1.876224e+000
900000000 -1.882277e-001 -1.499913e+002 -9.531987e+001 1.556324e+002 -1.071092e+002 -1.192519e+002 6.138782e-003 -1.986075e+000
950000000 -1.899152e-001 -1.550669e+002 -1.022495e+002 1.299554e+002 -9.654906e+001 5.615225e+001 5.104906e-003 -2.075638e+000
1000000000 -1.842283e-001 -1.595893e+002 -9.529491e+001 7.692077e+000 -9.676320e+001 7.781783e+001 6.271300e-003 -2.206086e+000
1050000000 -1.881652e-001 -1.642445e+002 -9.524621e+001 -8.691736e+001 -1.110246e+002 3.064471e+001 8.682393e-003 -2.311661e+000
1100000000 -1.818350e-001 -1.685157e+002 -9.564045e+001 -6.984619e+001 -9.587791e+001 1.525584e+001 8.648059e-003 -2.424749e+000
1150000000 -1.848579e-001 -1.728458e+002 -9.842129e+001 -7.731012e+001 -9.984016e+001 -1.139798e+002 8.260795e-003 -2.513054e+000
1200000000 -1.774094e-001 -1.769006e+002 -1.000512e+002 1.401725e+001 -8.992316e+001 -3.013077e+000 9.126430e-003 -2.637651e+000
1250000000 -1.804291e-001 1.790859e+002 -1.072365e+002 -4.815318e+001 -9.525195e+001 2.466541e+001 1.105458e-002 -2.728201e+000
1300000000 -1.737521e-001 1.751706e+002 -9.725524e+001 -1.140884e+002 -9.507482e+001 1.117848e+002 1.215142e-002 -2.835088e+000
1350000000 -1.767926e-001 1.714209e+002 -1.001514e+002 -1.317325e+002 -9.192483e+001 -4.599134e+001 1.280357e-002 -2.942664e+000
1400000000 -1.705265e-001 1.675851e+002 -9.299663e+001 1.563985e+002 -9.729806e+001 -1.626049e+002 1.348084e-002 -3.056977e+000
1450000000 -1.738616e-001 1.640519e+002 -1.023868e+002 9.806048e+001 -9.849981e+001 2.497113e+001 1.414765e-002 -3.191858e+000
1500000000 -1.694090e-001 1.602187e+002 -9.886781e+001 2.933396e+001 -9.088107e+001 -1.466642e+002 1.443847e-002 -3.294179e+000
1550000000 -1.718667e-001 1.568987e+002 -9.750164e+001 -5.741951e+001 -1.013733e+002 -7.298005e+001 1.462592e-002 -3.379063e+000
1600000000 -1.682132e-001 1.530335e+002 -1.045110e+002 -2.029543e+001 -9.576591e+001 1.296674e+002 1.712912e-002 -3.466211e+000
1650000000 -1.730175e-001 1.498602e+002 -9.139067e+001 -1.644169e+002 -9.185773e+001 -9.247166e+001 1.823219e-002 -3.581924e+000
1700000000 -1.805115e-001 1.459147e+002 -9.866175e+001 1.192769e+002 -9.447059e+001 1.733764e+002 1.925635e-002 -3.720541e+000
1750000000 -2.200652e-001 1.430954e+002 -9.673108e+001 3.564979e+001 -9.713313e+001 1.329574e+002 2.041483e-002 -3.822685e+000
1800000000 -1.774687e-001 1.391545e+002 -9.355232e+001 1.942774e+001 -9.195819e+001 7.980428e+001 2.080894e-002 -3.918346e+000
1850000000 -1.737706e-001 1.360405e+002 -1.015895e+002 -2.083426e+001 -1.081980e+002 -3.127567e+000 2.223264e-002 -4.042127e+000
1900000000 -1.812145e-001 1.319267e+002 -9.379556e+001 -1.644550e+002 -9.138440e+001 1.270311e+002 2.341467e-002 -4.130051e+000
1950000000 -1.831236e-001 1.287392e+002 -9.880041e+001 -2.894957e+000 -9.464780e+001 1.594458e+002 2.439604e-002 -4.221060e+000
2000000000 -1.971506e-001 1.244236e+002 -9.158156e+001 -1.567751e+002 -9.556818e+001 -1.306265e+002 2.375970e-002 -4.345269e+000
2050000000 -2.084856e-001 1.209259e+002 -9.665984e+001 4.149186e+001 -8.877415e+001 -1.120317e+002 2.681801e-002 -4.472136e+000
2100000000 -2.435052e-001 1.161003e+002 -9.087917e+001 1.728139e+002 -8.923759e+001 -1.623699e+002 2.627021e-002 -4.568811e+000
2150000000 -2.841813e-001 1.117708e+002 -9.724339e+001 4.732924e+001 -9.443304e+001 1.069921e+001 2.644672e-002 -4.652040e+000
2200000000 -3.873107e-001 1.055118e+002 -1.012953e+002 -6.364679e+001 -1.005778e+002 1.418138e+002 2.803782e-002 -4.745448e+000
2250000000 -5.895427e-001 9.844365e+001 -9.311539e+001 -1.246976e+002 -9.668625e+001 -1.703231e+002 3.084234e-002 -4.873415e+000
2300000000 -1.248782e+000 8.615732e+001 -9.175992e+001 -5.864735e+001 -9.121648e+001 1.494888e+001 2.996638e-002 -4.986724e+000
2350000000 -4.383096e+000 6.431775e+001 -9.279127e+001 1.387944e+002 -9.764550e+001 5.145170e+001 3.136312e-002 -5.068657e+000
2400000000 -1.133958e+001 1.601199e+002 -8.913148e+001 1.231520e+002 -9.206718e+001 -1.557124e+002 3.129515e-002 -5.194048e+000
2450000000 -2.214271e+000 1.357830e+002 -9.709007e+001 1.160540e+002 -9.023419e+001 -1.256741e+002 3.339238e-002 -5.300670e+000
2500000000 -9.668315e-001 1.208904e+002 -1.048575e+002 1.251360e+002 -9.937292e+001 -1.395096e+002 3.374239e-002 -5.427984e+000
2550000000 -5.750876e-001 1.116794e+002 -9.937585e+001 4.608340e+001 -9.947385e+001 -4.924333e+001 3.443632e-002 -5.503464e+000
2600000000 -4.374768e-001 1.054750e+002 -9.050351e+001 5.662416e+001 -9.071190e+001 -8.641743e+001 3.444777e-002 -5.611336e+000
2650000000 -3.479077e-001 9.977321e+001 -9.845028e+001 -9.902583e+001 -9.453323e+001 -1.307358e+002 3.489739e-002 -5.700715e+000
2700000000 -3.204029e-001 9.535790e+001 -9.379258e+001 8.460941e+001 -9.706235e+001 -6.360311e+001 3.682513e-002 -5.827300e+000
2750000000 -2.841602e-001 9.040260e+001 -1.017237e+002 -2.731642e+001 -9.613159e+001 -4.999246e+001 3.691901e-002 -5.930723e+000
2800000000 -2.823963e-001 8.662529e+001 -9.853213e+001 1.896455e+001 -9.023962e+001 1.689740e+002 3.718724e-002 -5.994866e+000
2850000000 -2.701649e-001 8.178322e+001 -1.102705e+002 -4.669399e+001 -9.926473e+001 5.342481e+000 4.006509e-002 -6.082210e+000
2900000000 -2.789973e-001 7.817424e+001 -9.467947e+001 7.324726e+001 -8.820651e+001 -1.268601e+002 4.067718e-002 -6.228200e+000
2950000000 -2.799776e-001 7.314247e+001 -9.686227e+001 -4.869078e+001 -9.291141e+001 1.692689e+002 4.266819e-002 -6.347764e+000
3000000000 -2.945496e-001 6.949081e+001 -1.025775e+002 -9.455624e+001 -9.804531e+001 -1.607102e+002 4.162641e-002 -6.432214e+000
3050000000 -3.123049e-001 6.412666e+001 -1.028742e+002 -5.581307e+001 -9.058575e+001 1.474435e+002 4.326105e-002 -6.554835e+000
3100000000 -3.354653e-001 6.019108e+001 -1.004343e+002 -1.478322e+002 -9.388618e+001 -1.769590e+001 4.347720e-002 -6.648262e+000
3150000000 -3.757345e-001 5.425309e+001 -9.406817e+001 -8.067623e+001 -1.042272e+002 1.084448e+002 4.457906e-002 -6.743972e+000
3200000000 -4.134639e-001 4.983063e+001 -9.364256e+001 -1.863067e+001 -9.288425e+001 1.718874e+002 4.638141e-002 -6.833755e+000
3250000000 -4.692014e-001 4.306643e+001 -9.359694e+001 1.178757e+002 -9.350405e+001 1.312017e+002 4.665105e-002 -6.938520e+000
3300000000 -5.290245e-001 3.765137e+001 -9.934517e+001 -1.283455e+001 -9.427341e+001 -1.515959e+002 4.761347e-002 -7.038190e+000
3350000000 -6.329774e-001 2.957519e+001 -9.327379e+001 2.946157e+001 -9.398482e+001 -2.991767e+001 4.909881e-002 -7.176388e+000
3400000000 -7.452202e-001 2.255780e+001 -9.067310e+001 3.915234e+001 -1.066744e+002 1.574651e+002 4.994882e-002 -7.312270e+000
3450000000 -9.332563e-001 1.245546e+001 -1.033493e+002 1.580040e+002 -1.115630e+002 -3.551172e+001 4.851486e-002 -7.392366e+000
3500000000 -1.122275e+000 2.756810e+000 -1.011079e+002 1.759001e+002 -1.092719e+002 -4.591416e+001 4.967798e-002 -7.491792e+000
3550000000 -1.436546e+000 -1.116748e+001 -9.297359e+001 -1.701122e+002 -9.709731e+001 4.064805e+001 5.064661e-002 -7.621265e+000
3600000000 -1.813079e+000 -2.565991e+001 -9.332988e+001 1.203822e+002 -1.100189e+002 1.199108e+002 5.074108e-002 -7.731398e+000
3650000000 -2.329521e+000 -4.606097e+001 -9.661703e+001 -1.157596e+002 -9.307765e+001 -9.438467e+001 5.222784e-002 -7.827936e+000
3700000000 -2.899577e+000 -6.824564e+001 -1.041666e+002 4.932610e+001 -9.474593e+001 4.279835e+001 5.153154e-002 -7.937979e+000
3750000000 -3.375823e+000 -9.725700e+001 -9.535531e+001 1.457237e+002 -9.525435e+001 -9.737939e+001 5.188184e-002 -8.063397e+000
3800000000 -3.638952e+000 -1.265872e+002 -9.831946e+001 -1.366021e+002 -9.314538e+001 -1.951683e+001 5.412952e-002 -8.154870e+000
3850000000 -3.392542e+000 -1.571757e+002 -9.524635e+001 -1.263876e+002 -9.409293e+001 -1.792831e+002 5.258923e-002 -8.250271e+000
3900000000 -3.078894e+000 1.768040e+002 -9.682137e+001 -3.611744e+001 -9.351984e+001 -1.780247e+002 5.495708e-002 -8.343596e+000
3950000000 -2.650304e+000 1.549929e+002 -9.507287e+001 -1.713837e+002 -9.162146e+001 9.606939e+001 5.586974e-002 -8.485307e+000
4000000000 -2.354256e+000 1.392932e+002 -1.077153e+002 8.490269e+001 -1.061007e+002 9.426074e+001 5.371593e-002 -8.618719e+000
4050000000 -1.813067e+000 1.253922e+002 -9.548068e+001 5.455773e+001 -9.296964e+001 -1.661653e+002 5.365314e-002 -8.691598e+000
4100000000 -1.527482e+000 1.139136e+002 -9.926181e+001 1.770003e+002 -9.640061e+001 9.514813e+000 5.699330e-002 -8.788997e+000
4150000000 -1.164338e+000 1.040997e+002 -9.404507e+001 1.591700e+002 -1.008023e+002 -1.473101e+002 5.735991e-002 -8.910164e+000
4200000000 -1.036572e+000 9.500555e+001 -9.183770e+001 -4.365103e+001 -9.809447e+001 -1.900734e+001 5.850498e-002 -9.008394e+000
4250000000 -8.381444e-001 8.770473e+001 -8.724576e+001 1.152777e+002 -9.306910e+001 -1.102015e+002 5.779721e-002 -9.108325e+000
4300000000 -7.914999e-001 8.071865e+001 -9.343764e+001 3.336921e+001 -9.123936e+001 8.910492e+001 5.916464e-002 -9.256573e+000
4350000000 -6.496733e-001 7.475285e+001 -9.640500e+001 2.697648e+001 -1.043094e+002 1.158261e+002 5.883625e-002 -9.346242e+000
4400000000 -6.397462e-001 6.915311e+001 -9.726441e+001 -1.516559e+002 -1.030893e+002 2.825269e+001 5.824894e-002 -9.462131e+000
4450000000 -5.325127e-001 6.382313e+001 -8.854879e+001 8.028890e+001 -1.026748e+002 8.736106e+001 5.902577e-002 -9.589395e+000
4500000000 -5.433192e-001 5.926827e+001 -9.873289e+001 -9.190670e+001 -9.578274e+001 -9.777853e+001 6.043334e-002 -9.686893e+000
4550000000 -4.575517e-001 5.424018e+001 -1.043239e+002 2.605657e+001 -9.976411e+001 1.689276e+002 5.947042e-002 -9.824347e+000
4600000000 -4.751644e-001 5.047696e+001 -9.262578e+001 7.919602e+001 -9.162622e+001 -3.069211e+001 5.856869e-002 -9.954567e+000
4650000000 -4.096190e-001 4.546551e+001 -9.622542e+001 -1.052992e+001 -1.006524e+002 -6.420837e+001 5.875235e-002 -1.004026e+001
4700000000 -4.315888e-001 4.232018e+001 -9.861060e+001 1.041731e+001 -9.207433e+001 -1.419722e+002 5.643900e-002 -1.012887e+001
4750000000 -3.802849e-001 3.720557e+001 -9.643136e+001 -9.849039e+001 -9.143265e+001 -1.399951e+002 5.809382e-002 -1.029773e+001
4800000000 -4.003925e-001 3.455499e+001 -1.009959e+002 8.064349e+000 -9.171822e+001 -4.516289e+001 5.618069e-002 -1.039601e+001
4850000000 -3.678828e-001 2.927458e+001 -1.033081e+002 -7.869889e+001 -9.991374e+001 1.424353e+002 5.503694e-002 -1.051433e+001
4900000000 -3.836475e-001 2.694991e+001 -1.074034e+002 7.547398e+001 -9.545216e+001 1.321419e+002 5.508755e-002 -1.060993e+001
4950000000 -3.701758e-001 2.150626e+001 -9.305346e+001 1.051639e+002 -9.806410e+001 7.783955e+001 5.436413e-002 -1.073974e+001
5000000000 -3.827742e-001 1.931786e+001 -9.480676e+001 1.303237e+002 -9.962739e+001 1.123022e+001 5.574667e-002 -1.082734e+001
5050000000 -3.900619e-001 1.369441e+001 -9.289333e+001 1.092469e+002 -9.141866e+001 1.525946e+002 5.429491e-002 -1.095850e+001
5100000000 -3.979373e-001 1.150081e+001 -1.001482e+002 -1.373993e+002 -9.421711e+001 -1.538323e+002 5.543773e-002 -1.105465e+001
5150000000 -4.310511e-001 5.676110e+000 -1.071476e+002 -1.638201e+002 -9.022095e+001 -1.759739e+002 5.711927e-002 -1.117306e+001
5200000000 -4.385932e-001 3.270442e+000 -1.041964e+002 4.288768e+001 -9.887633e+001 -1.046345e+002 5.686757e-002 -1.131914e+001
5250000000 -5.007334e-001 -2.789790e+000 -9.556148e+001 3.019111e+001 -9.290576e+001 -9.480111e+001 5.649192e-002 -1.143339e+001
5300000000 -5.136872e-001 -5.660436e+000 -1.073409e+002 -1.234319e+001 -9.298537e+001 8.008514e+001 5.543487e-002 -1.152167e+001
5350000000 -6.117309e-001 -1.210001e+001 -1.133480e+002 -1.447414e+002 -1.010813e+002 -6.450098e+001 5.645683e-002 -1.166216e+001
5400000000 -6.406599e-001 -1.583911e+001 -9.798830e+001 -9.107537e+001 -9.137291e+001 -8.494958e+001 5.636627e-002 -1.178148e+001
5450000000 -8.018237e-001 -2.303121e+001 -9.678056e+001 1.075572e+000 -9.034987e+001 -4.043185e+001 5.492469e-002 -1.192168e+001
5500000000 -8.946425e-001 -2.823340e+001 -9.636065e+001 -1.110151e+002 -9.419103e+001 -1.012181e+002 5.642411e-002 -1.202299e+001
5550000000 -1.190997e+000 -3.703155e+001 -1.014856e+002 -2.166811e+001 -9.654926e+001 1.063239e+002 5.325549e-002 -1.215805e+001
5600000000 -1.443000e+000 -4.472725e+001 -1.006357e+002 -6.044231e+001 -1.004501e+002 -1.354748e+002 5.321375e-002 -1.228197e+001
5650000000 -2.067286e+000 -5.701247e+001 -9.668714e+001 -4.717378e+001 -9.849905e+001 6.670980e+001 5.175644e-002 -1.240734e+001
5700000000 -2.809791e+000 -6.996438e+001 -1.157438e+002 1.596431e+002 -1.032214e+002 -7.358077e+000 5.056941e-002 -1.251262e+001
5750000000 -4.411633e+000 -9.134766e+001 -9.370466e+001 -4.799056e+001 -9.004135e+001 -3.657939e+001 4.980212e-002 -1.267598e+001
5800000000 -6.747458e+000 -1.186671e+002 -9.874442e+001 1.455968e+002 -9.818773e+001 1.471872e+002 4.837296e-002 -1.279275e+001
5850000000 -9.772204e+000 -1.728173e+002 -1.027787e+002 7.115408e+001 -8.937457e+001 1.213205e+002 4.901657e-002 -1.292925e+001
5900000000 -9.504550e+000 1.226411e+002 -9.323126e+001 -9.118942e+001 -9.450674e+001 -5.655206e+001 4.761520e-002 -1.304392e+001
5950000000 -6.068597e+000 7.969950e+001 -9.048190e+001 -1.081145e+002 -9.582459e+001 7.139499e+001 4.601954e-002 -1.313952e+001
6000000000 -4.223273e+000 5.280861e+001 -9.838255e+001 -1.629932e+002 -1.100897e+002 9.546174e+001 4.478102e-002 -1.325807e+001
