!Agilent Technologies,N5230A,US43500308,A.06.04.32
!Agilent N5230A: A.06.04.32
!Date: Thursday, July 11, 2024 10:48:33
!Correction: S12(Full 2 Port(1,2)) 
!S1P File: Measurement: S12:
# Hz S  dB   R 50
500000000  -8.778127e+001  -2.021002e+001 
550000000  -8.669049e+001  -9.419395e+001 
600000000  -8.691168e+001  -1.435914e+002 
650000000  -9.933546e+001  6.687182e+001 
700000000  -9.722939e+001  1.509954e+002 
750000000  -8.987193e+001  9.727135e+001 
800000000  -8.233471e+001  1.554089e+002 
850000000  -9.227278e+001  1.460482e+002 
900000000  -1.029834e+002  -1.223108e+002 
950000000  -1.092704e+002  -3.015528e+001 
1000000000  -1.137581e+002  9.732124e+001 
1050000000  -9.105164e+001  3.531153e+001 
1100000000  -1.011269e+002  -2.349696e+001 
1150000000  -9.876728e+001  1.001621e+002 
1200000000  -8.965458e+001  4.212149e+001 
1250000000  -9.414024e+001  1.438214e+002 
1300000000  -9.891237e+001  1.497377e+002 
1350000000  -8.992155e+001  8.313441e+001 
1400000000  -8.857777e+001  -7.459396e+001 
1450000000  -9.254526e+001  -9.231935e+001 
1500000000  -9.830821e+001  7.777010e+001 
1550000000  -9.560464e+001  3.861971e+001 
1600000000  -9.459346e+001  -1.770868e+002 
1650000000  -9.583176e+001  9.433302e+001 
1700000000  -9.468846e+001  5.697745e+001 
1750000000  -9.660930e+001  1.312385e+002 
1800000000  -9.328105e+001  -9.392924e+001 
1850000000  -9.331163e+001  -1.544407e+002 
1900000000  -8.716644e+001  7.588934e+001 
1950000000  -1.012716e+002  -3.151532e+001 
2000000000  -8.592503e+001  -1.093711e+002 
2050000000  -9.253532e+001  -1.627743e+002 
2100000000  -9.278457e+001  -1.091133e+002 
2150000000  -9.173425e+001  3.086522e+000 
2200000000  -1.034347e+002  -1.657622e+002 
2250000000  -9.648972e+001  4.965604e+001 
2300000000  -1.032780e+002  -7.858208e+001 
2350000000  -1.032247e+002  1.543088e+002 
2400000000  -8.942961e+001  -6.963559e+001 
2450000000  -1.017707e+002  -1.388611e+002 
2500000000  -1.078113e+002  5.137622e+001 
2550000000  -9.458752e+001  1.518914e+002 
2600000000  -9.800406e+001  1.306711e+002 
2650000000  -9.087385e+001  -2.405135e+001 
2700000000  -8.750695e+001  -8.318999e+001 
2750000000  -8.492995e+001  -1.794421e+002 
2800000000  -9.691528e+001  9.941570e+001 
2850000000  -8.286186e+001  -2.058345e+001 
2900000000  -8.648039e+001  -8.906195e+001 
2950000000  -8.318126e+001  1.498607e+002 
3000000000  -8.648502e+001  9.185171e+000 
3050000000  -8.724298e+001  -7.375668e+001 
3100000000  -8.613548e+001  1.297749e+002 
3150000000  -9.265498e+001  1.261734e+002 
3200000000  -9.909425e+001  -2.081623e+001 
3250000000  -9.542324e+001  -5.272817e+001 
3300000000  -8.527479e+001  -1.218282e+002 
3350000000  -9.883983e+001  1.433575e+002 
3400000000  -9.215506e+001  -4.200203e+001 
3450000000  -9.600056e+001  1.451497e+002 
3500000000  -9.076737e+001  7.067986e+000 
3550000000  -9.968182e+001  -2.303658e+001 
3600000000  -1.023520e+002  1.497295e+002 
3650000000  -1.009278e+002  7.866434e+001 
3700000000  -9.409627e+001  -1.588263e+002 
3750000000  -1.027934e+002  -5.073460e+001 
3800000000  -9.940967e+001  -1.671505e+002 
3850000000  -8.665548e+001  7.419871e+001 
3900000000  -9.043681e+001  6.532587e+001 
3950000000  -8.794362e+001  1.633289e+002 
4000000000  -1.005310e+002  1.086400e+002 
4050000000  -1.040566e+002  6.477005e+001 
4100000000  -9.299342e+001  -1.503954e+002 
4150000000  -1.000357e+002  -4.466188e+001 
4200000000  -9.877602e+001  -3.543087e+001 
4250000000  -9.194094e+001  -6.340086e+001 
4300000000  -9.465677e+001  -1.015508e+002 
4350000000  -1.241560e+002  -1.681714e+002 
4400000000  -9.316336e+001  2.827742e+001 
4450000000  -1.034324e+002  -1.934319e+001 
4500000000  -9.169753e+001  -8.648747e+001 
4550000000  -1.068278e+002  -2.461132e+001 
4600000000  -9.069673e+001  9.367657e+001 
4650000000  -8.953627e+001  8.834798e+001 
4700000000  -9.875282e+001  -1.256792e+002 
4750000000  -9.452274e+001  7.808535e+001 
4800000000  -9.148536e+001  1.691917e+002 
4850000000  -1.001883e+002  6.723891e+001 
4900000000  -9.737579e+001  -6.797356e+001 
4950000000  -9.773824e+001  9.543672e+001 
5000000000  -9.544553e+001  2.610073e+001 
5050000000  -9.085170e+001  4.222387e+001 
5100000000  -9.681711e+001  -7.360692e+001 
5150000000  -1.174582e+002  1.231740e+002 
5200000000  -9.608955e+001  -1.435902e+002 
5250000000  -9.000839e+001  1.254295e+002 
5300000000  -9.161726e+001  7.925229e+001 
5350000000  -9.426543e+001  -5.047519e+001 
5400000000  -8.986452e+001  1.712593e+002 
5450000000  -9.167404e+001  1.575405e+002 
5500000000  -8.926854e+001  -6.333830e+001 
5550000000  -8.667390e+001  -9.454396e+001 
5600000000  -8.725113e+001  1.096613e+002 
5650000000  -8.438537e+001  5.389307e+001 
5700000000  -9.489224e+001  -6.293068e+001 
5750000000  -9.517399e+001  -7.079433e+001 
5800000000  -1.002681e+002  5.944012e+001 
5850000000  -9.346835e+001  1.731640e+002 
5900000000  -9.097892e+001  -2.034693e+001 
5950000000  -8.976032e+001  1.262992e+001 
6000000000  -9.038395e+001  -7.680740e+000 
