!Agilent Technologies,N5230A,US43500308,A.06.04.32
!Agilent N5230A: A.06.04.32
!Date: Thursday, July 11, 2024 10:47:52
!Correction: S12(Full 2 Port(1,2)) 
!S1P File: Measurement: S12:
# Hz S  dB   R 50
500000000  -1.821583e+000  -1.496399e+002 
550000000  -7.262998e-001  -1.717965e+002 
600000000  -1.971135e-001  1.605264e+002 
650000000  -7.631505e-001  1.320252e+002 
700000000  -2.097031e+000  1.084102e+002 
750000000  -3.076768e+000  8.805717e+001 
800000000  -3.410670e+000  7.233270e+001 
850000000  -2.890802e+000  5.131370e+001 
900000000  -9.247171e-001  1.759426e+001 
950000000  -1.901024e+000  -4.106258e+001 
1000000000  -6.878265e+000  -8.283839e+001 
1050000000  -1.036749e+001  -1.024379e+002 
1100000000  -8.080757e+000  -1.338675e+002 
1150000000  -1.889413e+001  7.953297e+001 
1200000000  -3.604497e+001  6.013972e+001 
1250000000  -4.865252e+001  3.835405e+001 
1300000000  -5.321407e+001  -3.612954e+000 
1350000000  -4.992292e+001  -4.924870e+001 
1400000000  -5.087103e+001  -8.247792e+001 
1450000000  -4.920257e+001  -1.008954e+002 
1500000000  -4.892144e+001  -1.507346e+002 
1550000000  -4.996271e+001  1.444072e+002 
1600000000  -5.535485e+001  7.549353e+001 
1650000000  -4.942727e+001  -1.504609e+000 
1700000000  -4.375013e+001  -2.379138e+001 
1750000000  -3.699010e+001  -2.389416e+001 
1800000000  -2.479116e+001  -2.686352e+001 
1850000000  -1.031097e+001  -1.524391e+002 
1900000000  -1.918851e+001  1.646862e+002 
1950000000  -1.869764e+001  1.607049e+002 
2000000000  -1.953694e+001  1.498530e+002 
2050000000  -1.621763e+001  1.406865e+002 
2100000000  -1.430476e+001  1.362876e+002 
2150000000  -1.046107e+001  1.179938e+002 
2200000000  -6.870732e+000  9.188703e+001 
2250000000  -4.979259e+000  6.334893e+001 
2300000000  -4.752795e+000  3.650737e+001 
2350000000  -2.829387e+000  1.518478e+001 
2400000000  -2.542648e+000  -8.968073e+000 
2450000000  -1.387881e+000  -3.472679e+001 
2500000000  -1.665807e+000  -5.435345e+001 
2550000000  -1.298062e+000  -7.782816e+001 
2600000000  -1.064390e+000  -9.660906e+001 
2650000000  -9.804360e-001  -1.164325e+002 
2700000000  -9.292711e-001  -1.361162e+002 
2750000000  -8.642485e-001  -1.550110e+002 
2800000000  -8.066939e-001  -1.753956e+002 
2850000000  -6.650601e-001  1.658623e+002 
2900000000  -1.055301e+000  1.462437e+002 
2950000000  -1.317071e+000  1.233450e+002 
3000000000  -1.552295e+000  1.027793e+002 
3050000000  -2.502265e+000  8.484342e+001 
3100000000  -4.349035e+000  6.453739e+001 
3150000000  -4.561579e+000  4.234335e+001 
3200000000  -6.243005e+000  3.954495e+001 
3250000000  -8.496951e+000  1.343340e+001 
3300000000  -7.681591e+000  9.747427e+000 
3350000000  -1.072449e+001  -1.226681e+000 
3400000000  -1.015488e+001  -1.546348e+001 
3450000000  -1.139622e+001  -2.170116e+001 
3500000000  -1.187932e+001  -2.952925e+001 
3550000000  -1.256096e+001  -4.580574e+001 
3600000000  -1.157799e+001  -4.503337e+001 
3650000000  -1.344655e+001  -6.184177e+001 
3700000000  -1.031599e+001  -7.178926e+001 
3750000000  -1.116723e+001  -7.969266e+001 
3800000000  -7.352185e+000  -1.117618e+002 
3850000000  -4.983958e+000  -1.738486e+002 
3900000000  -1.500408e+001  1.196100e+002 
3950000000  -2.649516e+001  1.011771e+002 
4000000000  -3.938686e+001  1.581702e+002 
4050000000  -4.385249e+001  1.386936e+001 
4100000000  -1.690878e+001  -5.566392e+001 
4150000000  -1.018870e+001  -1.475890e+002 
4200000000  -1.352263e+001  1.459890e+002 
4250000000  -1.977739e+001  1.055694e+002 
4300000000  -2.437642e+001  7.924743e+001 
4350000000  -2.944089e+001  6.117214e+001 
4400000000  -3.501600e+001  4.443040e+001 
4450000000  -4.059888e+001  1.435659e+001 
4500000000  -4.403302e+001  -1.419862e+001 
4550000000  -4.480637e+001  -3.893666e+001 
4600000000  -4.152842e+001  -4.261378e+001 
4650000000  -3.823145e+001  -3.721944e+001 
4700000000  -3.231967e+001  -3.045311e+001 
4750000000  -2.600023e+001  -2.646338e+001 
4800000000  -1.683399e+001  -3.893032e+001 
4850000000  -8.446589e+000  -1.117646e+002 
4900000000  -1.237885e+001  -1.630882e+002 
4950000000  -1.494716e+001  -1.771106e+002 
5000000000  -1.458217e+001  1.733266e+002 
5050000000  -1.481899e+001  1.668586e+002 
5100000000  -1.325783e+001  1.561816e+002 
5150000000  -1.256273e+001  1.495505e+002 
5200000000  -1.050342e+001  1.366505e+002 
5250000000  -9.173330e+000  1.273252e+002 
5300000000  -6.771507e+000  1.095356e+002 
5350000000  -5.003032e+000  9.387247e+001 
5400000000  -3.109622e+000  6.861859e+001 
5450000000  -2.024687e+000  4.456974e+001 
5500000000  -1.619740e+000  1.862943e+001 
5550000000  -1.897354e+000  -5.482874e+000 
5600000000  -1.911602e+000  -2.489353e+001 
5650000000  -2.583817e+000  -4.303160e+001 
5700000000  -2.287958e+000  -6.239147e+001 
5750000000  -2.370563e+000  -7.813851e+001 
5800000000  -2.535465e+000  -9.883322e+001 
5850000000  -2.297585e+000  -1.178106e+002 
5900000000  -2.571383e+000  -1.376961e+002 
5950000000  -2.795323e+000  -1.598927e+002 
6000000000  -3.092987e+000  1.751844e+002 
